<Qucs Dataset 0.0.20>
<indep V1 21>
  -1.00000000000000000000e+01
  -9.00000000000000000000e+00
  -8.00000000000000000000e+00
  -7.00000000000000000000e+00
  -6.00000000000000000000e+00
  -5.00000000000000000000e+00
  -4.00000000000000000000e+00
  -3.00000000000000000000e+00
  -2.00000000000000000000e+00
  -1.00000000000000000000e+00
  +0.00000000000000000000e+00
  +1.00000000000000000000e+00
  +2.00000000000000000000e+00
  +3.00000000000000000000e+00
  +4.00000000000000000000e+00
  +5.00000000000000000000e+00
  +6.00000000000000000000e+00
  +7.00000000000000000000e+00
  +8.00000000000000000000e+00
  +9.00000000000000000000e+00
  +1.00000000000000000000e+01
</indep>
<dep VoltMetreR2.V V1>
  -6.87500000000000088818e+00
  -6.18750000000000088818e+00
  -5.50000000000000088818e+00
  -4.81250000000000000000e+00
  -4.12500000000000000000e+00
  -3.43750000000000044409e+00
  -2.75000000000000044409e+00
  -2.06250000000000000000e+00
  -1.37500000000000022204e+00
  -6.87500000000000111022e-01
  +0.00000000000000000000e+00
  +6.87500000000000111022e-01
  +1.37500000000000022204e+00
  +2.06250000000000000000e+00
  +2.75000000000000044409e+00
  +3.43750000000000044409e+00
  +4.12500000000000000000e+00
  +4.81250000000000000000e+00
  +5.50000000000000088818e+00
  +6.18750000000000088818e+00
  +6.87500000000000088818e+00
</dep>
<dep V1.I V1>
  +3.12499999999999930611e-03
  +2.81249999999999989592e-03
  +2.49999999999999875100e-03
  +2.18750000000000020817e-03
  +1.87499999999999993061e-03
  +1.56249999999999965306e-03
  +1.24999999999999937550e-03
  +9.37499999999999965306e-04
  +6.24999999999999687750e-04
  +3.12499999999999843875e-04
  +0.00000000000000000000e+00
  -3.12499999999999843875e-04
  -6.24999999999999687750e-04
  -9.37499999999999965306e-04
  -1.24999999999999937550e-03
  -1.56249999999999965306e-03
  -1.87499999999999993061e-03
  -2.18750000000000020817e-03
  -2.49999999999999875100e-03
  -2.81249999999999989592e-03
  -3.12499999999999930611e-03
</dep>
<dep AmpereMetre.I V1>
  -3.12499999999999930611e-03
  -2.81249999999999989592e-03
  -2.49999999999999875100e-03
  -2.18750000000000020817e-03
  -1.87499999999999993061e-03
  -1.56249999999999965306e-03
  -1.24999999999999937550e-03
  -9.37499999999999965306e-04
  -6.24999999999999687750e-04
  -3.12499999999999843875e-04
  +0.00000000000000000000e+00
  +3.12499999999999843875e-04
  +6.24999999999999687750e-04
  +9.37499999999999965306e-04
  +1.24999999999999937550e-03
  +1.56249999999999965306e-03
  +1.87499999999999993061e-03
  +2.18750000000000020817e-03
  +2.49999999999999875100e-03
  +2.81249999999999989592e-03
  +3.12499999999999930611e-03
</dep>
<dep _net1.V V1>
  -6.87500000000000088818e+00
  -6.18750000000000088818e+00
  -5.50000000000000088818e+00
  -4.81250000000000000000e+00
  -4.12500000000000000000e+00
  -3.43750000000000044409e+00
  -2.75000000000000044409e+00
  -2.06250000000000000000e+00
  -1.37500000000000022204e+00
  -6.87500000000000111022e-01
  +0.00000000000000000000e+00
  +6.87500000000000111022e-01
  +1.37500000000000022204e+00
  +2.06250000000000000000e+00
  +2.75000000000000044409e+00
  +3.43750000000000044409e+00
  +4.12500000000000000000e+00
  +4.81250000000000000000e+00
  +5.50000000000000088818e+00
  +6.18750000000000088818e+00
  +6.87500000000000088818e+00
</dep>
<dep _net2.V V1>
  -1.00000000000000000000e+01
  -9.00000000000000000000e+00
  -8.00000000000000000000e+00
  -7.00000000000000000000e+00
  -6.00000000000000000000e+00
  -5.00000000000000000000e+00
  -4.00000000000000000000e+00
  -3.00000000000000000000e+00
  -2.00000000000000000000e+00
  -1.00000000000000000000e+00
  +0.00000000000000000000e+00
  +1.00000000000000000000e+00
  +2.00000000000000000000e+00
  +3.00000000000000000000e+00
  +4.00000000000000000000e+00
  +5.00000000000000000000e+00
  +6.00000000000000000000e+00
  +7.00000000000000000000e+00
  +8.00000000000000000000e+00
  +9.00000000000000000000e+00
  +1.00000000000000000000e+01
</dep>
<dep _net0.V V1>
  -1.00000000000000000000e+01
  -9.00000000000000000000e+00
  -8.00000000000000000000e+00
  -7.00000000000000000000e+00
  -6.00000000000000000000e+00
  -5.00000000000000000000e+00
  -4.00000000000000000000e+00
  -3.00000000000000000000e+00
  -2.00000000000000000000e+00
  -1.00000000000000000000e+00
  +0.00000000000000000000e+00
  +1.00000000000000000000e+00
  +2.00000000000000000000e+00
  +3.00000000000000000000e+00
  +4.00000000000000000000e+00
  +5.00000000000000000000e+00
  +6.00000000000000000000e+00
  +7.00000000000000000000e+00
  +8.00000000000000000000e+00
  +9.00000000000000000000e+00
  +1.00000000000000000000e+01
</dep>
